
T0D24 000:815 SEGGER J-Link V4.34d Log File (0001ms, 0814ms total)
T0D24 000:815 DLL Compiled: Sep 13 2011 17:28:37 (0001ms, 0814ms total)
T0D24 000:815 Logging started @ 2014-11-05 13:12 (0001ms, 0814ms total)
T0D24 000:816 JLINK_SetWarnOutHandler(...) (0000ms, 0815ms total)
T0D24 000:816 JLINK_OpenEx(...)
Firmware: J-Link ARM V8 compiled Sep  6 2011 16:33:14
Hardware: V8.00
S/N: 304427288
Feature(s): RDI,FlashDL,FlashBP,JFlash,GDBFULL  returns O.K. (0502ms, 0815ms total)
T0D24 001:318 JLINK_SetErrorOutHandler(...) (0000ms, 1317ms total)
T0D24 001:318 JLINK_ExecCommand("ProjectFile = "D:\01 KAUST MotherBoard\00 °å×Ó²âÊÔ\Example Code\Enas\proj\JLinkSettings.ini"", ...)  returns 0x00 (0001ms, 1317ms total)
T0D24 001:328 JLINK_ExecCommand("Device = STM32F407VG", ...)  returns 0x00 (0000ms, 1318ms total)
T0D24 001:328 JLINK_ExecCommand("DisableConnectionTimeout", ...)  returns 0x00 (0000ms, 1318ms total)
T0D24 001:328 JLINK_TIF_Select(JLINKARM_TIF_JTAG)  returns 0x00 (0000ms, 1318ms total)
T0D24 001:328 JLINK_SetSpeed(50) (0001ms, 1318ms total)
T0D24 001:329 JLINK_GetHardwareVersion()  returns 0x13880 (0000ms, 1319ms total)
T0D24 001:329 JLINK_GetDLLVersion()  returns 43404 (0000ms, 1319ms total)
T0D24 001:329 JLINK_GetFirmwareString(...) (0000ms, 1319ms total)
T0D24 001:343 JLINK_GetDLLVersion()  returns 43404 (0000ms, 1319ms total)
T0D24 001:343 JLINK_GetCompileDateTime() (0000ms, 1319ms total)
T0D24 001:346 JLINK_GetFirmwareString(...) (0000ms, 1319ms total)
T0D24 001:349 JLINK_GetHardwareVersion()  returns 0x13880 (0000ms, 1319ms total)
T0D24 001:364 JLINK_GetIdData(...) >0x2F8 JTAG>TotalIRLen = 9, IRPrint = 0x0011 >0x30 JTAG> >0x210 JTAG> >0x80 JTAG> >0x40 JTAG> >0x40 JTAG> >0x50 JTAG> >0x40 JTAG> >0x40 JTAG> >0x40 JTAG> >0x50 JTAG> >0x40 JTAG> >0x50 JTAG> >0x40 JTAG> >0x40 JTAG> >0x40 JTAG> >0x30 JTAG> >0x40 JTAG> >0x50 JTAG> >0x40 JTAG> >0x38 JTAG> >0x80 JTAG> >0x40 JTAG> >0x40 JTAG> >0x50 JTAG> >0x40 JTAG> >0x40 JTAG> >0x40 JTAG> >0x50 JTAG> >0x40 JTAG> >0x40 JTAG> >0x30 JTAG> >0x40 JTAG> >0x40 JTAG> >0x40 JTAG> >0x40 JTAG>
 >0x40 JTAG> >0x50 JTAG> >0x40 JTAG> >0x80 JTAG> >0x40 JTAG> >0x30 JTAG> >0x40 JTAG> >0x40 JTAG> >0x40 JTAG> >0x40 JTAG> >0x40 JTAG> >0x50 JTAG> >0x40 JTAG> >0x80 JTAG> >0x40 JTAG> >0x30 JTAG> >0x40 JTAG> >0x50 JTAG> >0x40 JTAG> >0x40 JTAG> >0x40 JTAG> >0x30 JTAG> >0x40 JTAG> >0x50 JTAG> >0x40 JTAG>Found Cortex-M4 r0p1, Little endian. >0x50 JTAG> >0x50 JTAG> >0x40 JTAG> >0x40 JTAG> >0x30 JTAG> >0x30 JTAG> >0x50 JTAG> >0x40 JTAG> >0x80 JTAG> >0x40 JTAG> >0x30 JTAG> >0x40 JTAG> >0x50 JTAG> >0x40 JTAG>
 >0x40 JTAG> >0x40 JTAG> >0x30 JTAG> >0x30 JTAG> >0x50 JTAG> >0x40 JTAG> >0x80 JTAG> >0x40 JTAG> >0x30 JTAG> >0x40 JTAG> >0x50 JTAG> >0x40 JTAG>TPIU fitted. >0x40 JTAG> >0x40 JTAG> >0x30 JTAG> >0x40 JTAG> >0x50 JTAG> >0x40 JTAG>ETM fitted. >0x40 JTAG> >0x40 JTAG> >0x30 JTAG> >0x40 JTAG> >0x50 JTAG> >0x40 JTAG> >0x40 JTAG> >0x40 JTAG> >0x30 JTAG> >0x40 JTAG> >0x50 JTAG> >0x40 JTAG>  FPUnit: 6 code (BP) slots and 2 literal slots >0x40 JTAG> >0x40 JTAG> >0x30 JTAG> >0x40 JTAG> >0x50 JTAG> >0x40 JTAG>
 ScanLen=9 NumDevices=2 aId[0]=0x4BA00477 aIrRead[0]=0 aScanLen[0]=0 aScanRead[0]=0 (0264ms, 1319ms total)
T0D24 001:628 JLINK_JTAG_GetDeviceID(DeviceIndex = 0)  returns 0x4BA00477 (0000ms, 1583ms total)
T0D24 001:628 JLINK_JTAG_GetDeviceInfo(DeviceIndex = 0)  returns 0x00 (0000ms, 1583ms total)
T0D24 001:628 JLINK_JTAG_GetDeviceID(DeviceIndex = 1)  returns 0x6413041 (0000ms, 1583ms total)
T0D24 001:628 JLINK_JTAG_GetDeviceInfo(DeviceIndex = 1)  returns 0x00 (0000ms, 1583ms total)
T0D24 001:628 JLINK_GetDeviceFamily()  returns 14 (0000ms, 1583ms total)
T0D24 001:632 JLINK_ReadMem (0xE00FFFF0, 0x0010 Bytes, ...) -- CPU is running -- CPU_ReadMem(16 bytes @ 0xE00FFFF0) -- Data:  0D 00 00 00 10 00 00 00 05 00 00 00 B1 00 00 00  returns 0x00 (0017ms, 1583ms total)
T0D24 001:649 JLINK_ReadMem (0xE00FFFD0, 0x0020 Bytes, ...) -- CPU is running -- CPU_ReadMem(32 bytes @ 0xE00FFFD0) -- Data:  00 00 00 00 00 00 00 00 00 00 00 00 00 00 00 00 ...  returns 0x00 (0045ms, 1600ms total)
T0D24 001:694 JLINK_ReadMem (0xE00FF000, 0x0018 Bytes, ...) -- CPU is running -- CPU_ReadMem(24 bytes @ 0xE00FF000) -- Data:  03 F0 F0 FF 03 20 F0 FF 03 30 F0 FF 03 10 F0 FF ...  returns 0x00 (0015ms, 1645ms total)
T0D24 001:709 JLINK_ReadMemU32(0xE000ED00, 0x0001 Items, ...) -- CPU is running -- CPU_ReadMem(4 bytes @ 0xE000ED00) -- Data:  41 C2 0F 41  returns 0x01 (0010ms, 1660ms total)
T0D24 001:719 JLINK_ReadMemU32(0xE000EF40, 0x0001 Items, ...) -- CPU is running -- CPU_ReadMem(4 bytes @ 0xE000EF40) -- Data:  21 00 11 10  returns 0x01 (0010ms, 1670ms total)
T0D24 001:729 JLINK_ReadMemU32(0xE000EF44, 0x0001 Items, ...) -- CPU is running -- CPU_ReadMem(4 bytes @ 0xE000EF44) -- Data:  11 00 00 11  returns 0x01 (0010ms, 1680ms total)
T0D24 001:739 JLINK_SetResetType(JLINKARM_RESET_TYPE_NORMAL)  returns JLINKARM_RESET_TYPE_NORMAL (0000ms, 1690ms total)
T0D24 001:739 JLINK_Reset() >0x308 JTAG>TotalIRLen = 9, IRPrint = 0x0011 >0x30 JTAG> >0x210 JTAG> >0x80 JTAG> >0x40 JTAG> >0x40 JTAG> >0x50 JTAG> >0x40 JTAG> >0x40 JTAG> >0x40 JTAG> >0x50 JTAG> >0x40 JTAG> >0x50 JTAG> >0x40 JTAG> >0x40 JTAG> >0x40 JTAG> >0x30 JTAG> >0x40 JTAG> >0x50 JTAG> >0x40 JTAG> >0x38 JTAG> >0x80 JTAG> >0x40 JTAG> >0x40 JTAG> >0x50 JTAG> >0x40 JTAG> >0x40 JTAG> >0x40 JTAG> >0x50 JTAG> >0x40 JTAG> >0x40 JTAG> >0x30 JTAG> >0x40 JTAG> >0x40 JTAG> >0x40 JTAG> >0x40 JTAG> >0x40 JTAG>
 >0x50 JTAG> >0x40 JTAG> >0x80 JTAG> >0x40 JTAG> >0x30 JTAG> >0x40 JTAG> >0x40 JTAG> >0x40 JTAG> >0x40 JTAG> >0x40 JTAG> >0x50 JTAG> >0x40 JTAG> >0x80 JTAG> >0x40 JTAG> >0x30 JTAG> >0x40 JTAG> >0x50 JTAG> >0x40 JTAG> >0x40 JTAG> >0x40 JTAG> >0x30 JTAG> >0x40 JTAG> >0x50 JTAG> >0x40 JTAG>Found Cortex-M4 r0p1, Little endian. >0x50 JTAG> >0x50 JTAG> >0x40 JTAG> >0x40 JTAG> >0x30 JTAG> >0x30 JTAG> >0x50 JTAG> >0x40 JTAG> >0x80 JTAG> >0x40 JTAG> >0x30 JTAG> >0x40 JTAG> >0x50 JTAG> >0x40 JTAG> >0x40 JTAG>
 >0x40 JTAG> >0x30 JTAG> >0x40 JTAG> >0x50 JTAG> >0x40 JTAG>TPIU fitted. >0x40 JTAG> >0x40 JTAG> >0x30 JTAG> >0x40 JTAG> >0x50 JTAG> >0x40 JTAG>ETM fitted. >0x40 JTAG> >0x40 JTAG> >0x30 JTAG> >0x40 JTAG> >0x50 JTAG> >0x40 JTAG> >0x40 JTAG> >0x40 JTAG> >0x30 JTAG> >0x40 JTAG> >0x50 JTAG> >0x40 JTAG>  FPUnit: 6 code (BP) slots and 2 literal slots >0x40 JTAG> >0x40 JTAG> >0x30 JTAG> >0x40 JTAG> >0x50 JTAG> >0x40 JTAG> -- CPU is running -- CPU_WriteMem(4 bytes @ 0xE000EDF0) -- CPU is running
 -- CPU_WriteMem(4 bytes @ 0xE000EDFC) -- CPU is running -- CPU_WriteMem(4 bytes @ 0xE000ED0C) -- CPU is running -- CPU_ReadMem(4 bytes @ 0xE000EDF0) -- CPU is running -- CPU_ReadMem(4 bytes @ 0xE000EDF0) -- CPU is running -- CPU_WriteMem(4 bytes @ 0xE000EDF0) -- CPU is running -- CPU_WriteMem(4 bytes @ 0xE000EDFC) -- CPU is running -- CPU_ReadMem(4 bytes @ 0xE000EDF0) >0x90 JTAG> >0x40 JTAG> >0x30 JTAG> >0x40 JTAG> >0x50 JTAG> >0x40 JTAG> -- CPU_WriteMem(4 bytes @ 0xE000EDFC)
 -- CPU_WriteMem(4 bytes @ 0xE0001028) -- CPU_WriteMem(4 bytes @ 0xE0001038) -- CPU_WriteMem(4 bytes @ 0xE0001048) -- CPU_WriteMem(4 bytes @ 0xE0001058) (0483ms, 1690ms total)
T0D24 002:222 JLINK_Halt()  returns 0x00 (0000ms, 2173ms total)
T0D24 002:222 JLINK_IsHalted()  returns TRUE (0000ms, 2173ms total)
T0D24 002:222 JLINK_ReadMemU32(0xE000EDF0, 0x0001 Items, ...) -- CPU_ReadMem(4 bytes @ 0xE000EDF0) -- Data:  03 00 03 00  returns 0x01 (0010ms, 2173ms total)
T0D24 002:232 JLINK_WriteU32(0xE000EDF0, 0xA05F0003) -- CPU_WriteMem(4 bytes @ 0xE000EDF0)  returns 0x00 (0011ms, 2183ms total)
T0D24 002:243 JLINK_WriteU32(0xE000EDFC, 0x01000000) -- CPU_WriteMem(4 bytes @ 0xE000EDFC)  returns 0x00 (0008ms, 2194ms total)
T0D24 002:273 JLINK_GetHWStatus(...)  returns 0x00 (0001ms, 2202ms total)
T0D24 002:283 JLINK_GetNumBPUnits(Type = 0xFFFFFF00)  returns 0x06 (0000ms, 2203ms total)
T0D24 002:283 JLINK_GetNumBPUnits(Type = 0xF0)  returns 0x2000 (0000ms, 2203ms total)
T0D24 002:283 JLINK_GetNumWPUnits()  returns 0x04 (0000ms, 2203ms total)
T0D24 002:292 JLINK_GetSpeed()  returns 0x32 (0000ms, 2203ms total)
T0D24 002:298 JLINK_ReadMemU32(0xE000E004, 0x0001 Items, ...) -- CPU_ReadMem(4 bytes @ 0xE000E004) -- Data:  02 00 00 00  returns 0x01 (0010ms, 2203ms total)
T0D24 002:308 JLINK_ReadMemU32(0xE000E004, 0x0001 Items, ...) -- CPU_ReadMem(4 bytes @ 0xE000E004) -- Data:  02 00 00 00  returns 0x01 (0010ms, 2213ms total)
T0D24 002:318 JLINK_WriteMem(0xE0001000, 0x001C Bytes, ...) -- Data:  01 00 00 00 00 00 00 00 00 00 00 00 00 00 00 00 ... -- CPU_WriteMem(28 bytes @ 0xE0001000)  returns 0x1C (0012ms, 2223ms total)
T0D24 002:331 JLINK_ReadMem (0xE0001000, 0x001C Bytes, ...) -- CPU_ReadMem(28 bytes @ 0xE0001000) -- Data:  01 00 00 40 00 00 00 00 00 00 00 00 00 00 00 00 ...  returns 0x00 (0016ms, 2235ms total)
T0D24 002:347 JLINK_Halt()  returns 0x00 (0000ms, 2251ms total)
T0D24 002:347 JLINK_IsHalted()  returns TRUE (0000ms, 2251ms total)
T0D24 002:349 JLINK_WriteMem(0x20000000, 0x0180 Bytes, ...) -- Data:  00 BE 0A E0 0D 78 2D 06 68 40 08 24 40 00 00 D3 ... -- CPU_WriteMem(384 bytes @ 0x20000000)  returns 0x180 (0096ms, 2251ms total)
T0D24 002:445 JLINK_WriteReg(R0, 0x08000000)  returns 0x00 (0001ms, 2347ms total)
T0D24 002:446 JLINK_WriteReg(R1, 0x007A1200)  returns 0x00 (0000ms, 2348ms total)
T0D24 002:446 JLINK_WriteReg(R2, 0x00000001)  returns 0x00 (0000ms, 2348ms total)
T0D24 002:446 JLINK_WriteReg(R3, 0x00000000)  returns 0x00 (0000ms, 2348ms total)
T0D24 002:446 JLINK_WriteReg(R4, 0x00000000)  returns 0x00 (0000ms, 2348ms total)
T0D24 002:446 JLINK_WriteReg(R5, 0x00000000)  returns 0x00 (0000ms, 2348ms total)
T0D24 002:446 JLINK_WriteReg(R6, 0x00000000)  returns 0x00 (0000ms, 2348ms total)
T0D24 002:446 JLINK_WriteReg(R7, 0x00000000)  returns 0x00 (0000ms, 2348ms total)
T0D24 002:446 JLINK_WriteReg(R8, 0x00000000)  returns 0x00 (0000ms, 2348ms total)
T0D24 002:446 JLINK_WriteReg(R9, 0x2000017C)  returns 0x00 (0000ms, 2348ms total)
T0D24 002:446 JLINK_WriteReg(R10, 0x00000000)  returns 0x00 (0000ms, 2348ms total)
T0D24 002:446 JLINK_WriteReg(R11, 0x00000000)  returns 0x00 (0000ms, 2348ms total)
T0D24 002:446 JLINK_WriteReg(R12, 0x00000000)  returns 0x00 (0000ms, 2348ms total)
T0D24 002:446 JLINK_WriteReg(R13, 0x20000800)  returns 0x00 (0000ms, 2348ms total)
T0D24 002:446 JLINK_WriteReg(R14, 0x20000001)  returns 0x00 (0000ms, 2348ms total)
T0D24 002:446 JLINK_WriteReg(R15, 0x20000054)  returns 0x00 (0000ms, 2348ms total)
T0D24 002:446 JLINK_WriteReg(XPSR, 0x01000000)  returns 0x00 (0000ms, 2348ms total)
T0D24 002:446 JLINK_WriteReg(MSP, 0x20000800)  returns 0x00 (0000ms, 2348ms total)
T0D24 002:446 JLINK_WriteReg(PSP, 0x20000800)  returns 0x00 (0000ms, 2348ms total)
T0D24 002:446 JLINK_WriteReg(CFBP, 0x00000000)  returns 0x00 (0000ms, 2348ms total)
T0D24 002:446 JLINK_SetBPEx(Addr = 0x20000000, Type = 0xFFFFFFF2) -- CPU_ReadMem(4 bytes @ 0x20000000) -- CPU_WriteMem(4 bytes @ 0x20000000) -- CPU_ReadMem(4 bytes @ 0x20000000) -- CPU_WriteMem(4 bytes @ 0x20000000) -- CPU_ReadMem(2 bytes @ 0x20000000)  returns 0x00000001 (0043ms, 2348ms total)
T0D24 002:489 JLINK_Go() -- CPU_WriteMem(2 bytes @ 0x20000000) -- CPU_WriteMem(4 bytes @ 0xE0002008) -- CPU_WriteMem(4 bytes @ 0xE000200C) -- CPU_WriteMem(4 bytes @ 0xE0002010) -- CPU_WriteMem(4 bytes @ 0xE0002014) -- CPU_WriteMem(4 bytes @ 0xE0002018) -- CPU_WriteMem(4 bytes @ 0xE000201C) (0079ms, 2391ms total)
T0D24 002:568 JLINK_IsHalted() -- CPU_ReadMem(2 bytes @ 0x20000000)  returns TRUE (0125ms, 2470ms total)
T0D24 002:693 JLINK_ReadReg(R15)  returns 0x20000000 (0000ms, 2470ms total)
T0D24 002:693 JLINK_ClrBPEx(BPHandle = 0x00000001)  returns 0x00 (0000ms, 2470ms total)
T0D24 002:693 JLINK_ReadReg(R0)  returns 0x00000000 (0001ms, 2470ms total)
T0D24 002:694 JLINK_WriteReg(R0, 0x08080000)  returns 0x00 (0000ms, 2471ms total)
T0D24 002:694 JLINK_WriteReg(R1, 0x00020000)  returns 0x00 (0000ms, 2471ms total)
T0D24 002:694 JLINK_WriteReg(R2, 0x000000FF)  returns 0x00 (0000ms, 2471ms total)
T0D24 002:694 JLINK_WriteReg(R3, 0x00000000)  returns 0x00 (0000ms, 2471ms total)
T0D24 002:694 JLINK_WriteReg(R4, 0x00000000)  returns 0x00 (0000ms, 2471ms total)
T0D24 002:694 JLINK_WriteReg(R5, 0x00000000)  returns 0x00 (0000ms, 2471ms total)
T0D24 002:694 JLINK_WriteReg(R6, 0x00000000)  returns 0x00 (0000ms, 2471ms total)
T0D24 002:694 JLINK_WriteReg(R7, 0x00000000)  returns 0x00 (0000ms, 2471ms total)
T0D24 002:694 JLINK_WriteReg(R8, 0x00000000)  returns 0x00 (0000ms, 2471ms total)
T0D24 002:694 JLINK_WriteReg(R9, 0x2000017C)  returns 0x00 (0000ms, 2471ms total)
T0D24 002:694 JLINK_WriteReg(R10, 0x00000000)  returns 0x00 (0000ms, 2471ms total)
T0D24 002:694 JLINK_WriteReg(R11, 0x00000000)  returns 0x00 (0000ms, 2471ms total)
T0D24 002:694 JLINK_WriteReg(R12, 0x00000000)  returns 0x00 (0000ms, 2471ms total)
T0D24 002:694 JLINK_WriteReg(R13, 0x20000800)  returns 0x00 (0000ms, 2471ms total)
T0D24 002:694 JLINK_WriteReg(R14, 0x20000001)  returns 0x00 (0000ms, 2471ms total)
T0D24 002:694 JLINK_WriteReg(R15, 0x20000020)  returns 0x00 (0000ms, 2471ms total)
T0D24 002:694 JLINK_WriteReg(XPSR, 0x01000000)  returns 0x00 (0000ms, 2471ms total)
T0D24 002:694 JLINK_WriteReg(MSP, 0x20000800)  returns 0x00 (0000ms, 2471ms total)
T0D24 002:694 JLINK_WriteReg(PSP, 0x20000800)  returns 0x00 (0000ms, 2471ms total)
T0D24 002:694 JLINK_WriteReg(CFBP, 0x00000000)  returns 0x00 (0000ms, 2471ms total)
T0D24 002:694 JLINK_SetBPEx(Addr = 0x20000000, Type = 0xFFFFFFF2)  returns 0x00000002 (0000ms, 2471ms total)
T0D24 002:694 JLINK_Go() -- CPU_WriteMem(4 bytes @ 0xE0002008) -- CPU_WriteMem(4 bytes @ 0xE000200C) -- CPU_WriteMem(4 bytes @ 0xE0002010) -- CPU_WriteMem(4 bytes @ 0xE0002014) -- CPU_WriteMem(4 bytes @ 0xE0002018) -- CPU_WriteMem(4 bytes @ 0xE000201C) (0065ms, 2471ms total)
T0D24 002:759 JLINK_IsHalted() -- CPU_ReadMem(2 bytes @ 0x20000000)  returns TRUE (0125ms, 2536ms total)
T0D24 002:884 JLINK_ReadReg(R15)  returns 0x20000000 (0000ms, 2536ms total)
T0D24 002:884 JLINK_ClrBPEx(BPHandle = 0x00000002)  returns 0x00 (0000ms, 2536ms total)
T0D24 002:884 JLINK_ReadReg(R0)  returns 0x00000001 (0000ms, 2536ms total)
T0D24 002:884 JLINK_WriteReg(R0, 0x08080000)  returns 0x00 (0000ms, 2536ms total)
T0D24 002:884 JLINK_WriteReg(R1, 0x00020000)  returns 0x00 (0000ms, 2536ms total)
T0D24 002:884 JLINK_WriteReg(R2, 0x000000FF)  returns 0x00 (0000ms, 2536ms total)
T0D24 002:884 JLINK_WriteReg(R3, 0x00000000)  returns 0x00 (0000ms, 2536ms total)
T0D24 002:884 JLINK_WriteReg(R4, 0x00000000)  returns 0x00 (0000ms, 2536ms total)
T0D24 002:884 JLINK_WriteReg(R5, 0x00000000)  returns 0x00 (0000ms, 2536ms total)
T0D24 002:884 JLINK_WriteReg(R6, 0x00000000)  returns 0x00 (0000ms, 2536ms total)
T0D24 002:884 JLINK_WriteReg(R7, 0x00000000)  returns 0x00 (0000ms, 2536ms total)
T0D24 002:884 JLINK_WriteReg(R8, 0x00000000)  returns 0x00 (0000ms, 2536ms total)
T0D24 002:884 JLINK_WriteReg(R9, 0x2000017C)  returns 0x00 (0000ms, 2536ms total)
T0D24 002:884 JLINK_WriteReg(R10, 0x00000000)  returns 0x00 (0000ms, 2536ms total)
T0D24 002:884 JLINK_WriteReg(R11, 0x00000000)  returns 0x00 (0000ms, 2536ms total)
T0D24 002:884 JLINK_WriteReg(R12, 0x00000000)  returns 0x00 (0000ms, 2536ms total)
T0D24 002:884 JLINK_WriteReg(R13, 0x20000800)  returns 0x00 (0000ms, 2536ms total)
T0D24 002:884 JLINK_WriteReg(R14, 0x20000001)  returns 0x00 (0000ms, 2536ms total)
T0D24 002:884 JLINK_WriteReg(R15, 0x200000BC)  returns 0x00 (0000ms, 2536ms total)
T0D24 002:884 JLINK_WriteReg(XPSR, 0x01000000)  returns 0x00 (0000ms, 2536ms total)
T0D24 002:884 JLINK_WriteReg(MSP, 0x20000800)  returns 0x00 (0000ms, 2536ms total)
T0D24 002:884 JLINK_WriteReg(PSP, 0x20000800)  returns 0x00 (0000ms, 2536ms total)
T0D24 002:884 JLINK_WriteReg(CFBP, 0x00000000)  returns 0x00 (0000ms, 2536ms total)
T0D24 002:884 JLINK_SetBPEx(Addr = 0x20000000, Type = 0xFFFFFFF2)  returns 0x00000003 (0000ms, 2536ms total)
T0D24 002:884 JLINK_Go() -- CPU_WriteMem(4 bytes @ 0xE0002008) -- CPU_WriteMem(4 bytes @ 0xE000200C) -- CPU_WriteMem(4 bytes @ 0xE0002010) -- CPU_WriteMem(4 bytes @ 0xE0002014) -- CPU_WriteMem(4 bytes @ 0xE0002018) -- CPU_WriteMem(4 bytes @ 0xE000201C) (0063ms, 2536ms total)
T0D24 002:947 JLINK_IsHalted()  returns FALSE (0008ms, 2599ms total)
T0D24 003:005 JLINK_IsHalted()  returns FALSE (0007ms, 2599ms total)
T0D24 003:062 JLINK_IsHalted()  returns FALSE (0008ms, 2599ms total)
T0D24 003:120 JLINK_IsHalted()  returns FALSE (0007ms, 2599ms total)
T0D24 003:177 JLINK_IsHalted()  returns FALSE (0007ms, 2599ms total)
T0D24 003:234 JLINK_IsHalted()  returns FALSE (0007ms, 2599ms total)
T0D24 003:291 JLINK_IsHalted()  returns FALSE (0007ms, 2599ms total)
T0D24 003:348 JLINK_IsHalted()  returns FALSE (0007ms, 2599ms total)
T0D24 003:405 JLINK_IsHalted()  returns FALSE (0007ms, 2599ms total)
T0D24 003:462 JLINK_IsHalted()  returns FALSE (0007ms, 2599ms total)
T0D24 003:519 JLINK_IsHalted()  returns FALSE (0007ms, 2599ms total)
T0D24 003:576 JLINK_IsHalted()  returns FALSE (0007ms, 2599ms total)
T0D24 003:633 JLINK_IsHalted()  returns FALSE (0007ms, 2599ms total)
T0D24 003:690 JLINK_IsHalted()  returns FALSE (0017ms, 2599ms total)
T0D24 003:757 JLINK_IsHalted()  returns FALSE (0007ms, 2599ms total)
T0D24 003:814 JLINK_IsHalted()  returns FALSE (0007ms, 2599ms total)
T0D24 003:871 JLINK_IsHalted()  returns FALSE (0007ms, 2599ms total)
T0D24 003:928 JLINK_IsHalted()  returns FALSE (0007ms, 2599ms total)
T0D24 003:985 JLINK_IsHalted()  returns FALSE (0007ms, 2599ms total)
T0D24 004:042 JLINK_IsHalted()  returns FALSE (0007ms, 2599ms total)
T0D24 004:099 JLINK_IsHalted()  returns FALSE (0009ms, 2599ms total)
T0D24 004:158 JLINK_IsHalted()  returns FALSE (0007ms, 2599ms total)
T0D24 004:215 JLINK_IsHalted()  returns FALSE (0007ms, 2599ms total)
T0D24 004:272 JLINK_IsHalted()  returns FALSE (0007ms, 2599ms total)
T0D24 004:329 JLINK_IsHalted()  returns FALSE (0007ms, 2599ms total)
T0D24 004:387 JLINK_IsHalted()  returns FALSE (0007ms, 2599ms total)
T0D24 004:444 JLINK_IsHalted()  returns FALSE (0007ms, 2599ms total)
T0D24 004:501 JLINK_IsHalted()  returns FALSE (0007ms, 2599ms total)
T0D24 004:558 JLINK_IsHalted()  returns FALSE (0007ms, 2599ms total)
T0D24 004:615 JLINK_IsHalted()  returns FALSE (0007ms, 2599ms total)
T0D24 004:672 JLINK_IsHalted()  returns FALSE (0007ms, 2599ms total)
T0D24 004:729 JLINK_IsHalted()  returns FALSE (0008ms, 2599ms total)
T0D24 004:787 JLINK_IsHalted()  returns FALSE (0007ms, 2599ms total)
T0D24 004:844 JLINK_IsHalted()  returns FALSE (0007ms, 2599ms total)
T0D24 004:901 JLINK_IsHalted()  returns FALSE (0008ms, 2599ms total)
T0D24 004:959 JLINK_IsHalted() -- CPU_ReadMem(2 bytes @ 0x20000000)  returns TRUE (0124ms, 2599ms total)
T0D24 005:083 JLINK_ReadReg(R15)  returns 0x20000000 (0001ms, 2599ms total)
T0D24 005:084 JLINK_ClrBPEx(BPHandle = 0x00000003)  returns 0x00 (0000ms, 2600ms total)
T0D24 005:084 JLINK_ReadReg(R0)  returns 0x00000000 (0000ms, 2600ms total)
T0D24 005:084 JLINK_WriteReg(R0, 0x00000001)  returns 0x00 (0000ms, 2600ms total)
T0D24 005:084 JLINK_WriteReg(R1, 0x00020000)  returns 0x00 (0000ms, 2600ms total)
T0D24 005:084 JLINK_WriteReg(R2, 0x000000FF)  returns 0x00 (0000ms, 2600ms total)
T0D24 005:084 JLINK_WriteReg(R3, 0x00000000)  returns 0x00 (0000ms, 2600ms total)
T0D24 005:084 JLINK_WriteReg(R4, 0x00000000)  returns 0x00 (0000ms, 2600ms total)
T0D24 005:084 JLINK_WriteReg(R5, 0x00000000)  returns 0x00 (0000ms, 2600ms total)
T0D24 005:084 JLINK_WriteReg(R6, 0x00000000)  returns 0x00 (0000ms, 2600ms total)
T0D24 005:084 JLINK_WriteReg(R7, 0x00000000)  returns 0x00 (0000ms, 2600ms total)
T0D24 005:084 JLINK_WriteReg(R8, 0x00000000)  returns 0x00 (0000ms, 2600ms total)
T0D24 005:084 JLINK_WriteReg(R9, 0x2000017C)  returns 0x00 (0000ms, 2600ms total)
T0D24 005:084 JLINK_WriteReg(R10, 0x00000000)  returns 0x00 (0000ms, 2600ms total)
T0D24 005:084 JLINK_WriteReg(R11, 0x00000000)  returns 0x00 (0000ms, 2600ms total)
T0D24 005:084 JLINK_WriteReg(R12, 0x00000000)  returns 0x00 (0000ms, 2600ms total)
T0D24 005:084 JLINK_WriteReg(R13, 0x20000800)  returns 0x00 (0000ms, 2600ms total)
T0D24 005:084 JLINK_WriteReg(R14, 0x20000001)  returns 0x00 (0000ms, 2600ms total)
T0D24 005:084 JLINK_WriteReg(R15, 0x20000082)  returns 0x00 (0001ms, 2600ms total)
T0D24 005:085 JLINK_WriteReg(XPSR, 0x01000000)  returns 0x00 (0000ms, 2601ms total)
T0D24 005:085 JLINK_WriteReg(MSP, 0x20000800)  returns 0x00 (0000ms, 2601ms total)
T0D24 005:085 JLINK_WriteReg(PSP, 0x20000800)  returns 0x00 (0000ms, 2601ms total)
T0D24 005:085 JLINK_WriteReg(CFBP, 0x00000000)  returns 0x00 (0000ms, 2601ms total)
T0D24 005:085 JLINK_SetBPEx(Addr = 0x20000000, Type = 0xFFFFFFF2)  returns 0x00000004 (0000ms, 2601ms total)
T0D24 005:085 JLINK_Go() -- CPU_WriteMem(4 bytes @ 0xE0002008) -- CPU_WriteMem(4 bytes @ 0xE000200C) -- CPU_WriteMem(4 bytes @ 0xE0002010) -- CPU_WriteMem(4 bytes @ 0xE0002014) -- CPU_WriteMem(4 bytes @ 0xE0002018) -- CPU_WriteMem(4 bytes @ 0xE000201C) (0069ms, 2601ms total)
T0D24 005:154 JLINK_IsHalted() -- CPU_ReadMem(2 bytes @ 0x20000000)  returns TRUE (0125ms, 2670ms total)
T0D24 005:279 JLINK_ReadReg(R15)  returns 0x20000000 (0000ms, 2670ms total)
T0D24 005:279 JLINK_ClrBPEx(BPHandle = 0x00000004)  returns 0x00 (0000ms, 2670ms total)
T0D24 005:279 JLINK_ReadReg(R0)  returns 0x00000000 (0000ms, 2670ms total)
T0D24 005:334 JLINK_WriteMem(0x20000000, 0x0180 Bytes, ...) -- Data:  00 BE 0A E0 0D 78 2D 06 68 40 08 24 40 00 00 D3 ... -- CPU_WriteMem(384 bytes @ 0x20000000)  returns 0x180 (0096ms, 2670ms total)
T0D24 005:431 JLINK_WriteReg(R0, 0x08000000)  returns 0x00 (0000ms, 2766ms total)
T0D24 005:431 JLINK_WriteReg(R1, 0x007A1200)  returns 0x00 (0000ms, 2766ms total)
T0D24 005:431 JLINK_WriteReg(R2, 0x00000002)  returns 0x00 (0000ms, 2766ms total)
T0D24 005:431 JLINK_WriteReg(R3, 0x00000000)  returns 0x00 (0000ms, 2766ms total)
T0D24 005:431 JLINK_WriteReg(R4, 0x00000000)  returns 0x00 (0000ms, 2766ms total)
T0D24 005:431 JLINK_WriteReg(R5, 0x00000000)  returns 0x00 (0000ms, 2766ms total)
T0D24 005:431 JLINK_WriteReg(R6, 0x00000000)  returns 0x00 (0000ms, 2766ms total)
T0D24 005:431 JLINK_WriteReg(R7, 0x00000000)  returns 0x00 (0000ms, 2766ms total)
T0D24 005:431 JLINK_WriteReg(R8, 0x00000000)  returns 0x00 (0000ms, 2766ms total)
T0D24 005:431 JLINK_WriteReg(R9, 0x2000017C)  returns 0x00 (0000ms, 2766ms total)
T0D24 005:431 JLINK_WriteReg(R10, 0x00000000)  returns 0x00 (0000ms, 2766ms total)
T0D24 005:431 JLINK_WriteReg(R11, 0x00000000)  returns 0x00 (0000ms, 2766ms total)
T0D24 005:431 JLINK_WriteReg(R12, 0x00000000)  returns 0x00 (0001ms, 2766ms total)
T0D24 005:432 JLINK_WriteReg(R13, 0x20000800)  returns 0x00 (0000ms, 2767ms total)
T0D24 005:432 JLINK_WriteReg(R14, 0x20000001)  returns 0x00 (0000ms, 2767ms total)
T0D24 005:432 JLINK_WriteReg(R15, 0x20000054)  returns 0x00 (0000ms, 2767ms total)
T0D24 005:432 JLINK_WriteReg(XPSR, 0x01000000)  returns 0x00 (0000ms, 2767ms total)
T0D24 005:432 JLINK_WriteReg(MSP, 0x20000800)  returns 0x00 (0000ms, 2767ms total)
T0D24 005:432 JLINK_WriteReg(PSP, 0x20000800)  returns 0x00 (0000ms, 2767ms total)
T0D24 005:432 JLINK_WriteReg(CFBP, 0x00000000)  returns 0x00 (0000ms, 2767ms total)
T0D24 005:432 JLINK_SetBPEx(Addr = 0x20000000, Type = 0xFFFFFFF2) -- CPU_ReadMem(4 bytes @ 0x20000000) -- CPU_WriteMem(4 bytes @ 0x20000000) -- CPU_ReadMem(4 bytes @ 0x20000000) -- CPU_WriteMem(4 bytes @ 0x20000000) -- CPU_ReadMem(2 bytes @ 0x20000000)  returns 0x00000005 (0043ms, 2767ms total)
T0D24 005:475 JLINK_Go() -- CPU_WriteMem(2 bytes @ 0x20000000) -- CPU_WriteMem(4 bytes @ 0xE0002008) -- CPU_WriteMem(4 bytes @ 0xE000200C) -- CPU_WriteMem(4 bytes @ 0xE0002010) -- CPU_WriteMem(4 bytes @ 0xE0002014) -- CPU_WriteMem(4 bytes @ 0xE0002018) -- CPU_WriteMem(4 bytes @ 0xE000201C) (0072ms, 2810ms total)
T0D24 005:547 JLINK_IsHalted() -- CPU_ReadMem(2 bytes @ 0x20000000)  returns TRUE (0125ms, 2882ms total)
T0D24 005:672 JLINK_ReadReg(R15)  returns 0x20000000 (0000ms, 2882ms total)
T0D24 005:672 JLINK_ClrBPEx(BPHandle = 0x00000005)  returns 0x00 (0000ms, 2882ms total)
T0D24 005:672 JLINK_ReadReg(R0)  returns 0x00000000 (0000ms, 2882ms total)
T0D24 005:672 JLINK_WriteMem(0x20000180, 0x0400 Bytes, ...) -- Data:  50 C3 00 20 C9 02 08 08 89 0F 08 08 8B 0F 08 08 ... -- CPU_WriteMem(1024 bytes @ 0x20000180)  returns 0x400 (0238ms, 2882ms total)
T0D24 005:910 JLINK_WriteReg(R0, 0x08080000)  returns 0x00 (0001ms, 3120ms total)
T0D24 005:911 JLINK_WriteReg(R1, 0x00000400)  returns 0x00 (0000ms, 3121ms total)
T0D24 005:911 JLINK_WriteReg(R2, 0x20000180)  returns 0x00 (0000ms, 3121ms total)
T0D24 005:911 JLINK_WriteReg(R3, 0x00000000)  returns 0x00 (0000ms, 3121ms total)
T0D24 005:911 JLINK_WriteReg(R4, 0x00000000)  returns 0x00 (0000ms, 3121ms total)
T0D24 005:911 JLINK_WriteReg(R5, 0x00000000)  returns 0x00 (0000ms, 3121ms total)
T0D24 005:911 JLINK_WriteReg(R6, 0x00000000)  returns 0x00 (0000ms, 3121ms total)
T0D24 005:911 JLINK_WriteReg(R7, 0x00000000)  returns 0x00 (0000ms, 3121ms total)
T0D24 005:911 JLINK_WriteReg(R8, 0x00000000)  returns 0x00 (0000ms, 3121ms total)
T0D24 005:911 JLINK_WriteReg(R9, 0x2000017C)  returns 0x00 (0000ms, 3121ms total)
T0D24 005:911 JLINK_WriteReg(R10, 0x00000000)  returns 0x00 (0000ms, 3121ms total)
T0D24 005:911 JLINK_WriteReg(R11, 0x00000000)  returns 0x00 (0000ms, 3121ms total)
T0D24 005:911 JLINK_WriteReg(R12, 0x00000000)  returns 0x00 (0000ms, 3121ms total)
T0D24 005:911 JLINK_WriteReg(R13, 0x20000800)  returns 0x00 (0000ms, 3121ms total)
T0D24 005:911 JLINK_WriteReg(R14, 0x20000001)  returns 0x00 (0000ms, 3121ms total)
T0D24 005:911 JLINK_WriteReg(R15, 0x20000108)  returns 0x00 (0000ms, 3121ms total)
T0D24 005:911 JLINK_WriteReg(XPSR, 0x01000000)  returns 0x00 (0000ms, 3121ms total)
T0D24 005:911 JLINK_WriteReg(MSP, 0x20000800)  returns 0x00 (0001ms, 3121ms total)
T0D24 005:912 JLINK_WriteReg(PSP, 0x20000800)  returns 0x00 (0000ms, 3122ms total)
T0D24 005:912 JLINK_WriteReg(CFBP, 0x00000000)  returns 0x00 (0000ms, 3122ms total)
T0D24 005:912 JLINK_SetBPEx(Addr = 0x20000000, Type = 0xFFFFFFF2)  returns 0x00000006 (0000ms, 3122ms total)
T0D24 005:912 JLINK_Go() -- CPU_WriteMem(4 bytes @ 0xE0002008) -- CPU_WriteMem(4 bytes @ 0xE000200C) -- CPU_WriteMem(4 bytes @ 0xE0002010) -- CPU_WriteMem(4 bytes @ 0xE0002014) -- CPU_WriteMem(4 bytes @ 0xE0002018) -- CPU_WriteMem(4 bytes @ 0xE000201C) (0065ms, 3122ms total)
T0D24 005:977 JLINK_IsHalted() -- CPU_ReadMem(2 bytes @ 0x20000000)  returns TRUE (0125ms, 3187ms total)
T0D24 006:102 JLINK_ReadReg(R15)  returns 0x20000000 (0000ms, 3187ms total)
T0D24 006:102 JLINK_ClrBPEx(BPHandle = 0x00000006)  returns 0x00 (0000ms, 3187ms total)
T0D24 006:102 JLINK_ReadReg(R0)  returns 0x00000000 (0000ms, 3187ms total)
T0D24 006:102 JLINK_WriteMem(0x20000180, 0x0400 Bytes, ...) -- Data:  01 68 01 60 01 68 41 F4 00 41 01 60 01 68 41 F4 ... -- CPU_WriteMem(1024 bytes @ 0x20000180)  returns 0x400 (0238ms, 3187ms total)
T0D24 006:340 JLINK_WriteReg(R0, 0x08080400)  returns 0x00 (0000ms, 3425ms total)
T0D24 006:340 JLINK_WriteReg(R1, 0x00000400)  returns 0x00 (0000ms, 3425ms total)
T0D24 006:340 JLINK_WriteReg(R2, 0x20000180)  returns 0x00 (0001ms, 3425ms total)
T0D24 006:341 JLINK_WriteReg(R3, 0x00000000)  returns 0x00 (0000ms, 3426ms total)
T0D24 006:341 JLINK_WriteReg(R4, 0x00000000)  returns 0x00 (0000ms, 3426ms total)
T0D24 006:341 JLINK_WriteReg(R5, 0x00000000)  returns 0x00 (0000ms, 3426ms total)
T0D24 006:341 JLINK_WriteReg(R6, 0x00000000)  returns 0x00 (0000ms, 3426ms total)
T0D24 006:341 JLINK_WriteReg(R7, 0x00000000)  returns 0x00 (0000ms, 3426ms total)
T0D24 006:341 JLINK_WriteReg(R8, 0x00000000)  returns 0x00 (0000ms, 3426ms total)
T0D24 006:341 JLINK_WriteReg(R9, 0x2000017C)  returns 0x00 (0000ms, 3426ms total)
T0D24 006:341 JLINK_WriteReg(R10, 0x00000000)  returns 0x00 (0000ms, 3426ms total)
T0D24 006:341 JLINK_WriteReg(R11, 0x00000000)  returns 0x00 (0000ms, 3426ms total)
T0D24 006:341 JLINK_WriteReg(R12, 0x00000000)  returns 0x00 (0000ms, 3426ms total)
T0D24 006:341 JLINK_WriteReg(R13, 0x20000800)  returns 0x00 (0000ms, 3426ms total)
T0D24 006:341 JLINK_WriteReg(R14, 0x20000001)  returns 0x00 (0000ms, 3426ms total)
T0D24 006:341 JLINK_WriteReg(R15, 0x20000108)  returns 0x00 (0000ms, 3426ms total)
T0D24 006:341 JLINK_WriteReg(XPSR, 0x01000000)  returns 0x00 (0000ms, 3426ms total)
T0D24 006:341 JLINK_WriteReg(MSP, 0x20000800)  returns 0x00 (0000ms, 3426ms total)
T0D24 006:341 JLINK_WriteReg(PSP, 0x20000800)  returns 0x00 (0000ms, 3426ms total)
T0D24 006:341 JLINK_WriteReg(CFBP, 0x00000000)  returns 0x00 (0000ms, 3426ms total)
T0D24 006:341 JLINK_SetBPEx(Addr = 0x20000000, Type = 0xFFFFFFF2)  returns 0x00000007 (0000ms, 3426ms total)
T0D24 006:341 JLINK_Go() -- CPU_WriteMem(4 bytes @ 0xE0002008) -- CPU_WriteMem(4 bytes @ 0xE000200C) -- CPU_WriteMem(4 bytes @ 0xE0002010) -- CPU_WriteMem(4 bytes @ 0xE0002014) -- CPU_WriteMem(4 bytes @ 0xE0002018) -- CPU_WriteMem(4 bytes @ 0xE000201C) (0068ms, 3426ms total)
T0D24 006:410 JLINK_IsHalted() -- CPU_ReadMem(2 bytes @ 0x20000000)  returns TRUE (0125ms, 3494ms total)
T0D24 006:535 JLINK_ReadReg(R15)  returns 0x20000000 (0000ms, 3494ms total)
T0D24 006:535 JLINK_ClrBPEx(BPHandle = 0x00000007)  returns 0x00 (0000ms, 3494ms total)
T0D24 006:535 JLINK_ReadReg(R0)  returns 0x00000000 (0000ms, 3494ms total)
T0D24 006:535 JLINK_WriteMem(0x20000180, 0x0400 Bytes, ...) -- Data:  30 55 64 1C 9D F8 01 10 E0 B2 31 54 40 1C C0 B2 ... -- CPU_WriteMem(1024 bytes @ 0x20000180)  returns 0x400 (0238ms, 3494ms total)
T0D24 006:773 JLINK_WriteReg(R0, 0x08080800)  returns 0x00 (0000ms, 3732ms total)
T0D24 006:773 JLINK_WriteReg(R1, 0x00000400)  returns 0x00 (0000ms, 3732ms total)
T0D24 006:773 JLINK_WriteReg(R2, 0x20000180)  returns 0x00 (0000ms, 3732ms total)
T0D24 006:773 JLINK_WriteReg(R3, 0x00000000)  returns 0x00 (0000ms, 3732ms total)
T0D24 006:773 JLINK_WriteReg(R4, 0x00000000)  returns 0x00 (0000ms, 3732ms total)
T0D24 006:773 JLINK_WriteReg(R5, 0x00000000)  returns 0x00 (0000ms, 3732ms total)
T0D24 006:773 JLINK_WriteReg(R6, 0x00000000)  returns 0x00 (0000ms, 3732ms total)
T0D24 006:773 JLINK_WriteReg(R7, 0x00000000)  returns 0x00 (0000ms, 3732ms total)
T0D24 006:773 JLINK_WriteReg(R8, 0x00000000)  returns 0x00 (0000ms, 3732ms total)
T0D24 006:773 JLINK_WriteReg(R9, 0x2000017C)  returns 0x00 (0000ms, 3732ms total)
T0D24 006:773 JLINK_WriteReg(R10, 0x00000000)  returns 0x00 (0000ms, 3732ms total)
T0D24 006:773 JLINK_WriteReg(R11, 0x00000000)  returns 0x00 (0000ms, 3732ms total)
T0D24 006:773 JLINK_WriteReg(R12, 0x00000000)  returns 0x00 (0000ms, 3732ms total)
T0D24 006:773 JLINK_WriteReg(R13, 0x20000800)  returns 0x00 (0000ms, 3732ms total)
T0D24 006:773 JLINK_WriteReg(R14, 0x20000001)  returns 0x00 (0000ms, 3732ms total)
T0D24 006:773 JLINK_WriteReg(R15, 0x20000108)  returns 0x00 (0000ms, 3732ms total)
T0D24 006:773 JLINK_WriteReg(XPSR, 0x01000000)  returns 0x00 (0000ms, 3732ms total)
T0D24 006:773 JLINK_WriteReg(MSP, 0x20000800)  returns 0x00 (0000ms, 3732ms total)
T0D24 006:773 JLINK_WriteReg(PSP, 0x20000800)  returns 0x00 (0000ms, 3732ms total)
T0D24 006:773 JLINK_WriteReg(CFBP, 0x00000000)  returns 0x00 (0000ms, 3732ms total)
T0D24 006:773 JLINK_SetBPEx(Addr = 0x20000000, Type = 0xFFFFFFF2)  returns 0x00000008 (0000ms, 3732ms total)
T0D24 006:773 JLINK_Go() -- CPU_WriteMem(4 bytes @ 0xE0002008) -- CPU_WriteMem(4 bytes @ 0xE000200C) -- CPU_WriteMem(4 bytes @ 0xE0002010) -- CPU_WriteMem(4 bytes @ 0xE0002014) -- CPU_WriteMem(4 bytes @ 0xE0002018) -- CPU_WriteMem(4 bytes @ 0xE000201C) (0067ms, 3732ms total)
T0D24 006:840 JLINK_IsHalted() -- CPU_ReadMem(2 bytes @ 0x20000000)  returns TRUE (0125ms, 3799ms total)
T0D24 006:965 JLINK_ReadReg(R15)  returns 0x20000000 (0001ms, 3799ms total)
T0D24 006:966 JLINK_ClrBPEx(BPHandle = 0x00000008)  returns 0x00 (0000ms, 3800ms total)
T0D24 006:966 JLINK_ReadReg(R0)  returns 0x00000000 (0000ms, 3800ms total)
T0D24 006:966 JLINK_WriteMem(0x20000180, 0x0400 Bytes, ...) -- Data:  FA D3 64 1C E4 B2 01 20 01 2C 00 D9 82 46 76 1C ... -- CPU_WriteMem(1024 bytes @ 0x20000180)  returns 0x400 (0237ms, 3800ms total)
T0D24 007:203 JLINK_WriteReg(R0, 0x08080C00)  returns 0x00 (0000ms, 4037ms total)
T0D24 007:203 JLINK_WriteReg(R1, 0x00000400)  returns 0x00 (0000ms, 4037ms total)
T0D24 007:203 JLINK_WriteReg(R2, 0x20000180)  returns 0x00 (0001ms, 4037ms total)
T0D24 007:204 JLINK_WriteReg(R3, 0x00000000)  returns 0x00 (0000ms, 4038ms total)
T0D24 007:204 JLINK_WriteReg(R4, 0x00000000)  returns 0x00 (0000ms, 4038ms total)
T0D24 007:204 JLINK_WriteReg(R5, 0x00000000)  returns 0x00 (0000ms, 4038ms total)
T0D24 007:204 JLINK_WriteReg(R6, 0x00000000)  returns 0x00 (0000ms, 4038ms total)
T0D24 007:204 JLINK_WriteReg(R7, 0x00000000)  returns 0x00 (0000ms, 4038ms total)
T0D24 007:204 JLINK_WriteReg(R8, 0x00000000)  returns 0x00 (0000ms, 4038ms total)
T0D24 007:204 JLINK_WriteReg(R9, 0x2000017C)  returns 0x00 (0000ms, 4038ms total)
T0D24 007:204 JLINK_WriteReg(R10, 0x00000000)  returns 0x00 (0000ms, 4038ms total)
T0D24 007:204 JLINK_WriteReg(R11, 0x00000000)  returns 0x00 (0000ms, 4038ms total)
T0D24 007:204 JLINK_WriteReg(R12, 0x00000000)  returns 0x00 (0000ms, 4038ms total)
T0D24 007:204 JLINK_WriteReg(R13, 0x20000800)  returns 0x00 (0000ms, 4038ms total)
T0D24 007:204 JLINK_WriteReg(R14, 0x20000001)  returns 0x00 (0000ms, 4038ms total)
T0D24 007:204 JLINK_WriteReg(R15, 0x20000108)  returns 0x00 (0000ms, 4038ms total)
T0D24 007:204 JLINK_WriteReg(XPSR, 0x01000000)  returns 0x00 (0000ms, 4038ms total)
T0D24 007:204 JLINK_WriteReg(MSP, 0x20000800)  returns 0x00 (0000ms, 4038ms total)
T0D24 007:204 JLINK_WriteReg(PSP, 0x20000800)  returns 0x00 (0000ms, 4038ms total)
T0D24 007:204 JLINK_WriteReg(CFBP, 0x00000000)  returns 0x00 (0000ms, 4038ms total)
T0D24 007:204 JLINK_SetBPEx(Addr = 0x20000000, Type = 0xFFFFFFF2)  returns 0x00000009 (0001ms, 4038ms total)
T0D24 007:205 JLINK_Go() -- CPU_WriteMem(4 bytes @ 0xE0002008) -- CPU_WriteMem(4 bytes @ 0xE000200C) -- CPU_WriteMem(4 bytes @ 0xE0002010) -- CPU_WriteMem(4 bytes @ 0xE0002014) -- CPU_WriteMem(4 bytes @ 0xE0002018) -- CPU_WriteMem(4 bytes @ 0xE000201C) (0067ms, 4039ms total)
T0D24 007:272 JLINK_IsHalted() -- CPU_ReadMem(2 bytes @ 0x20000000)  returns TRUE (0125ms, 4106ms total)
T0D24 007:398 JLINK_ReadReg(R15)  returns 0x20000000 (0000ms, 4106ms total)
T0D24 007:398 JLINK_ClrBPEx(BPHandle = 0x00000009)  returns 0x00 (0000ms, 4106ms total)
T0D24 007:398 JLINK_ReadReg(R0)  returns 0x00000000 (0000ms, 4106ms total)
T0D24 007:398 JLINK_WriteMem(0x20000180, 0x0400 Bytes, ...) -- Data:  01 00 8D F8 02 00 01 24 8D F8 03 40 68 46 0B F0 ... -- CPU_WriteMem(1024 bytes @ 0x20000180)  returns 0x400 (0237ms, 4106ms total)
T0D24 007:635 JLINK_WriteReg(R0, 0x08081000)  returns 0x00 (0001ms, 4343ms total)
T0D24 007:636 JLINK_WriteReg(R1, 0x00000400)  returns 0x00 (0000ms, 4344ms total)
T0D24 007:636 JLINK_WriteReg(R2, 0x20000180)  returns 0x00 (0000ms, 4344ms total)
T0D24 007:636 JLINK_WriteReg(R3, 0x00000000)  returns 0x00 (0000ms, 4344ms total)
T0D24 007:636 JLINK_WriteReg(R4, 0x00000000)  returns 0x00 (0000ms, 4344ms total)
T0D24 007:636 JLINK_WriteReg(R5, 0x00000000)  returns 0x00 (0000ms, 4344ms total)
T0D24 007:636 JLINK_WriteReg(R6, 0x00000000)  returns 0x00 (0000ms, 4344ms total)
T0D24 007:636 JLINK_WriteReg(R7, 0x00000000)  returns 0x00 (0000ms, 4344ms total)
T0D24 007:636 JLINK_WriteReg(R8, 0x00000000)  returns 0x00 (0000ms, 4344ms total)
T0D24 007:636 JLINK_WriteReg(R9, 0x2000017C)  returns 0x00 (0000ms, 4344ms total)
T0D24 007:636 JLINK_WriteReg(R10, 0x00000000)  returns 0x00 (0000ms, 4344ms total)
T0D24 007:636 JLINK_WriteReg(R11, 0x00000000)  returns 0x00 (0000ms, 4344ms total)
T0D24 007:636 JLINK_WriteReg(R12, 0x00000000)  returns 0x00 (0000ms, 4344ms total)
T0D24 007:636 JLINK_WriteReg(R13, 0x20000800)  returns 0x00 (0000ms, 4344ms total)
T0D24 007:636 JLINK_WriteReg(R14, 0x20000001)  returns 0x00 (0000ms, 4344ms total)
T0D24 007:636 JLINK_WriteReg(R15, 0x20000108)  returns 0x00 (0000ms, 4344ms total)
T0D24 007:636 JLINK_WriteReg(XPSR, 0x01000000)  returns 0x00 (0000ms, 4344ms total)
T0D24 007:636 JLINK_WriteReg(MSP, 0x20000800)  returns 0x00 (0000ms, 4344ms total)
T0D24 007:636 JLINK_WriteReg(PSP, 0x20000800)  returns 0x00 (0000ms, 4344ms total)
T0D24 007:636 JLINK_WriteReg(CFBP, 0x00000000)  returns 0x00 (0000ms, 4344ms total)
T0D24 007:636 JLINK_SetBPEx(Addr = 0x20000000, Type = 0xFFFFFFF2)  returns 0x0000000A (0000ms, 4344ms total)
T0D24 007:636 JLINK_Go() -- CPU_WriteMem(4 bytes @ 0xE0002008) -- CPU_WriteMem(4 bytes @ 0xE000200C) -- CPU_WriteMem(4 bytes @ 0xE0002010) -- CPU_WriteMem(4 bytes @ 0xE0002014) -- CPU_WriteMem(4 bytes @ 0xE0002018) -- CPU_WriteMem(4 bytes @ 0xE000201C) (0107ms, 4344ms total)
T0D24 007:743 JLINK_IsHalted() -- CPU_ReadMem(2 bytes @ 0x20000000)  returns TRUE (0125ms, 4451ms total)
T0D24 007:868 JLINK_ReadReg(R15)  returns 0x20000000 (0000ms, 4451ms total)
T0D24 007:868 JLINK_ClrBPEx(BPHandle = 0x0000000A)  returns 0x00 (0000ms, 4451ms total)
T0D24 007:868 JLINK_ReadReg(R0)  returns 0x00000000 (0000ms, 4451ms total)
T0D24 007:868 JLINK_WriteMem(0x20000180, 0x0400 Bytes, ...) -- Data:  00 28 EB D0 0B F0 6C FF 47 F8 24 00 64 1C E5 E7 ... -- CPU_WriteMem(1024 bytes @ 0x20000180)  returns 0x400 (0238ms, 4451ms total)
T0D24 008:106 JLINK_WriteReg(R0, 0x08081400)  returns 0x00 (0001ms, 4689ms total)
T0D24 008:107 JLINK_WriteReg(R1, 0x00000400)  returns 0x00 (0000ms, 4690ms total)
T0D24 008:107 JLINK_WriteReg(R2, 0x20000180)  returns 0x00 (0000ms, 4690ms total)
T0D24 008:107 JLINK_WriteReg(R3, 0x00000000)  returns 0x00 (0000ms, 4690ms total)
T0D24 008:107 JLINK_WriteReg(R4, 0x00000000)  returns 0x00 (0000ms, 4690ms total)
T0D24 008:107 JLINK_WriteReg(R5, 0x00000000)  returns 0x00 (0000ms, 4690ms total)
T0D24 008:107 JLINK_WriteReg(R6, 0x00000000)  returns 0x00 (0000ms, 4690ms total)
T0D24 008:107 JLINK_WriteReg(R7, 0x00000000)  returns 0x00 (0000ms, 4690ms total)
T0D24 008:107 JLINK_WriteReg(R8, 0x00000000)  returns 0x00 (0001ms, 4690ms total)
T0D24 008:108 JLINK_WriteReg(R9, 0x2000017C)  returns 0x00 (0000ms, 4691ms total)
T0D24 008:108 JLINK_WriteReg(R10, 0x00000000)  returns 0x00 (0000ms, 4691ms total)
T0D24 008:108 JLINK_WriteReg(R11, 0x00000000)  returns 0x00 (0000ms, 4691ms total)
T0D24 008:108 JLINK_WriteReg(R12, 0x00000000)  returns 0x00 (0000ms, 4691ms total)
T0D24 008:108 JLINK_WriteReg(R13, 0x20000800)  returns 0x00 (0000ms, 4691ms total)
T0D24 008:108 JLINK_WriteReg(R14, 0x20000001)  returns 0x00 (0000ms, 4691ms total)
T0D24 008:108 JLINK_WriteReg(R15, 0x20000108)  returns 0x00 (0000ms, 4691ms total)
T0D24 008:108 JLINK_WriteReg(XPSR, 0x01000000)  returns 0x00 (0000ms, 4691ms total)
T0D24 008:108 JLINK_WriteReg(MSP, 0x20000800)  returns 0x00 (0000ms, 4691ms total)
T0D24 008:108 JLINK_WriteReg(PSP, 0x20000800)  returns 0x00 (0000ms, 4691ms total)
T0D24 008:108 JLINK_WriteReg(CFBP, 0x00000000)  returns 0x00 (0000ms, 4691ms total)
T0D24 008:108 JLINK_SetBPEx(Addr = 0x20000000, Type = 0xFFFFFFF2)  returns 0x0000000B (0000ms, 4691ms total)
T0D24 008:108 JLINK_Go() -- CPU_WriteMem(4 bytes @ 0xE0002008) -- CPU_WriteMem(4 bytes @ 0xE000200C) -- CPU_WriteMem(4 bytes @ 0xE0002010) -- CPU_WriteMem(4 bytes @ 0xE0002014) -- CPU_WriteMem(4 bytes @ 0xE0002018) -- CPU_WriteMem(4 bytes @ 0xE000201C) (0067ms, 4691ms total)
T0D24 008:175 JLINK_IsHalted() -- CPU_ReadMem(2 bytes @ 0x20000000)  returns TRUE (0125ms, 4758ms total)
T0D24 008:300 JLINK_ReadReg(R15)  returns 0x20000000 (0000ms, 4758ms total)
T0D24 008:300 JLINK_ClrBPEx(BPHandle = 0x0000000B)  returns 0x00 (0000ms, 4758ms total)
T0D24 008:300 JLINK_ReadReg(R0)  returns 0x00000000 (0000ms, 4758ms total)
T0D24 008:300 JLINK_WriteMem(0x20000180, 0x0400 Bytes, ...) -- Data:  F0 83 10 B5 26 4A 00 24 11 68 00 E0 11 68 11 F0 ... -- CPU_WriteMem(1024 bytes @ 0x20000180)  returns 0x400 (0238ms, 4758ms total)
T0D24 008:538 JLINK_WriteReg(R0, 0x08081800)  returns 0x00 (0000ms, 4996ms total)
T0D24 008:539 JLINK_WriteReg(R1, 0x00000400)  returns 0x00 (0000ms, 4996ms total)
T0D24 008:539 JLINK_WriteReg(R2, 0x20000180)  returns 0x00 (0000ms, 4996ms total)
T0D24 008:539 JLINK_WriteReg(R3, 0x00000000)  returns 0x00 (0000ms, 4996ms total)
T0D24 008:539 JLINK_WriteReg(R4, 0x00000000)  returns 0x00 (0000ms, 4996ms total)
T0D24 008:539 JLINK_WriteReg(R5, 0x00000000)  returns 0x00 (0000ms, 4996ms total)
T0D24 008:539 JLINK_WriteReg(R6, 0x00000000)  returns 0x00 (0000ms, 4996ms total)
T0D24 008:539 JLINK_WriteReg(R7, 0x00000000)  returns 0x00 (0000ms, 4996ms total)
T0D24 008:539 JLINK_WriteReg(R8, 0x00000000)  returns 0x00 (0000ms, 4996ms total)
T0D24 008:539 JLINK_WriteReg(R9, 0x2000017C)  returns 0x00 (0000ms, 4996ms total)
T0D24 008:539 JLINK_WriteReg(R10, 0x00000000)  returns 0x00 (0000ms, 4996ms total)
T0D24 008:539 JLINK_WriteReg(R11, 0x00000000)  returns 0x00 (0000ms, 4996ms total)
T0D24 008:539 JLINK_WriteReg(R12, 0x00000000)  returns 0x00 (0000ms, 4996ms total)
T0D24 008:539 JLINK_WriteReg(R13, 0x20000800)  returns 0x00 (0000ms, 4996ms total)
T0D24 008:539 JLINK_WriteReg(R14, 0x20000001)  returns 0x00 (0000ms, 4996ms total)
T0D24 008:539 JLINK_WriteReg(R15, 0x20000108)  returns 0x00 (0000ms, 4996ms total)
T0D24 008:539 JLINK_WriteReg(XPSR, 0x01000000)  returns 0x00 (0000ms, 4996ms total)
T0D24 008:539 JLINK_WriteReg(MSP, 0x20000800)  returns 0x00 (0000ms, 4996ms total)
T0D24 008:539 JLINK_WriteReg(PSP, 0x20000800)  returns 0x00 (0000ms, 4996ms total)
T0D24 008:539 JLINK_WriteReg(CFBP, 0x00000000)  returns 0x00 (0000ms, 4996ms total)
T0D24 008:539 JLINK_SetBPEx(Addr = 0x20000000, Type = 0xFFFFFFF2)  returns 0x0000000C (0000ms, 4996ms total)
T0D24 008:539 JLINK_Go() -- CPU_WriteMem(4 bytes @ 0xE0002008) -- CPU_WriteMem(4 bytes @ 0xE000200C) -- CPU_WriteMem(4 bytes @ 0xE0002010) -- CPU_WriteMem(4 bytes @ 0xE0002014) -- CPU_WriteMem(4 bytes @ 0xE0002018) -- CPU_WriteMem(4 bytes @ 0xE000201C) (0068ms, 4996ms total)
T0D24 008:607 JLINK_IsHalted() -- CPU_ReadMem(2 bytes @ 0x20000000)  returns TRUE (0125ms, 5064ms total)
T0D24 008:732 JLINK_ReadReg(R15)  returns 0x20000000 (0000ms, 5064ms total)
T0D24 008:732 JLINK_ClrBPEx(BPHandle = 0x0000000C)  returns 0x00 (0000ms, 5064ms total)
T0D24 008:732 JLINK_ReadReg(R0)  returns 0x00000000 (0000ms, 5064ms total)
T0D24 008:732 JLINK_WriteMem(0x20000180, 0x0400 Bytes, ...) -- Data:  00 26 4F F4 80 69 A1 E8 50 02 38 46 0B F0 21 FB ... -- CPU_WriteMem(1024 bytes @ 0x20000180)  returns 0x400 (0238ms, 5064ms total)
T0D24 008:970 JLINK_WriteReg(R0, 0x08081C00)  returns 0x00 (0000ms, 5302ms total)
T0D24 008:970 JLINK_WriteReg(R1, 0x00000400)  returns 0x00 (0000ms, 5302ms total)
T0D24 008:970 JLINK_WriteReg(R2, 0x20000180)  returns 0x00 (0000ms, 5302ms total)
T0D24 008:970 JLINK_WriteReg(R3, 0x00000000)  returns 0x00 (0000ms, 5302ms total)
T0D24 008:970 JLINK_WriteReg(R4, 0x00000000)  returns 0x00 (0000ms, 5302ms total)
T0D24 008:970 JLINK_WriteReg(R5, 0x00000000)  returns 0x00 (0000ms, 5302ms total)
T0D24 008:970 JLINK_WriteReg(R6, 0x00000000)  returns 0x00 (0000ms, 5302ms total)
T0D24 008:970 JLINK_WriteReg(R7, 0x00000000)  returns 0x00 (0000ms, 5302ms total)
T0D24 008:970 JLINK_WriteReg(R8, 0x00000000)  returns 0x00 (0000ms, 5302ms total)
T0D24 008:970 JLINK_WriteReg(R9, 0x2000017C)  returns 0x00 (0000ms, 5302ms total)
T0D24 008:970 JLINK_WriteReg(R10, 0x00000000)  returns 0x00 (0000ms, 5302ms total)
T0D24 008:970 JLINK_WriteReg(R11, 0x00000000)  returns 0x00 (0000ms, 5302ms total)
T0D24 008:970 JLINK_WriteReg(R12, 0x00000000)  returns 0x00 (0000ms, 5302ms total)
T0D24 008:970 JLINK_WriteReg(R13, 0x20000800)  returns 0x00 (0000ms, 5302ms total)
T0D24 008:970 JLINK_WriteReg(R14, 0x20000001)  returns 0x00 (0000ms, 5302ms total)
T0D24 008:971 JLINK_WriteReg(R15, 0x20000108)  returns 0x00 (0000ms, 5303ms total)
T0D24 008:971 JLINK_WriteReg(XPSR, 0x01000000)  returns 0x00 (0000ms, 5303ms total)
T0D24 008:971 JLINK_WriteReg(MSP, 0x20000800)  returns 0x00 (0000ms, 5303ms total)
T0D24 008:971 JLINK_WriteReg(PSP, 0x20000800)  returns 0x00 (0000ms, 5303ms total)
T0D24 008:971 JLINK_WriteReg(CFBP, 0x00000000)  returns 0x00 (0000ms, 5303ms total)
T0D24 008:971 JLINK_SetBPEx(Addr = 0x20000000, Type = 0xFFFFFFF2)  returns 0x0000000D (0000ms, 5303ms total)
T0D24 008:971 JLINK_Go() -- CPU_WriteMem(4 bytes @ 0xE0002008) -- CPU_WriteMem(4 bytes @ 0xE000200C) -- CPU_WriteMem(4 bytes @ 0xE0002010) -- CPU_WriteMem(4 bytes @ 0xE0002014) -- CPU_WriteMem(4 bytes @ 0xE0002018) -- CPU_WriteMem(4 bytes @ 0xE000201C) (0067ms, 5303ms total)
T0D24 009:038 JLINK_IsHalted() -- CPU_ReadMem(2 bytes @ 0x20000000)  returns TRUE (0125ms, 5370ms total)
T0D24 009:163 JLINK_ReadReg(R15)  returns 0x20000000 (0000ms, 5370ms total)
T0D24 009:163 JLINK_ClrBPEx(BPHandle = 0x0000000D)  returns 0x00 (0000ms, 5370ms total)
T0D24 009:163 JLINK_ReadReg(R0)  returns 0x00000000 (0000ms, 5370ms total)
T0D24 009:163 JLINK_WriteMem(0x20000180, 0x0400 Bytes, ...) -- Data:  C3 E9 04 60 18 46 0B F0 47 F9 01 21 40 F2 2A 30 ... -- CPU_WriteMem(1024 bytes @ 0x20000180)  returns 0x400 (0238ms, 5370ms total)
T0D24 009:402 JLINK_WriteReg(R0, 0x08082000)  returns 0x00 (0000ms, 5608ms total)
T0D24 009:402 JLINK_WriteReg(R1, 0x00000400)  returns 0x00 (0000ms, 5608ms total)
T0D24 009:402 JLINK_WriteReg(R2, 0x20000180)  returns 0x00 (0000ms, 5608ms total)
T0D24 009:402 JLINK_WriteReg(R3, 0x00000000)  returns 0x00 (0000ms, 5608ms total)
T0D24 009:402 JLINK_WriteReg(R4, 0x00000000)  returns 0x00 (0000ms, 5608ms total)
T0D24 009:402 JLINK_WriteReg(R5, 0x00000000)  returns 0x00 (0000ms, 5608ms total)
T0D24 009:402 JLINK_WriteReg(R6, 0x00000000)  returns 0x00 (0000ms, 5608ms total)
T0D24 009:402 JLINK_WriteReg(R7, 0x00000000)  returns 0x00 (0000ms, 5608ms total)
T0D24 009:402 JLINK_WriteReg(R8, 0x00000000)  returns 0x00 (0000ms, 5608ms total)
T0D24 009:402 JLINK_WriteReg(R9, 0x2000017C)  returns 0x00 (0000ms, 5608ms total)
T0D24 009:402 JLINK_WriteReg(R10, 0x00000000)  returns 0x00 (0000ms, 5608ms total)
T0D24 009:402 JLINK_WriteReg(R11, 0x00000000)  returns 0x00 (0000ms, 5608ms total)
T0D24 009:402 JLINK_WriteReg(R12, 0x00000000)  returns 0x00 (0000ms, 5608ms total)
T0D24 009:402 JLINK_WriteReg(R13, 0x20000800)  returns 0x00 (0000ms, 5608ms total)
T0D24 009:402 JLINK_WriteReg(R14, 0x20000001)  returns 0x00 (0000ms, 5608ms total)
T0D24 009:402 JLINK_WriteReg(R15, 0x20000108)  returns 0x00 (0000ms, 5608ms total)
T0D24 009:402 JLINK_WriteReg(XPSR, 0x01000000)  returns 0x00 (0000ms, 5608ms total)
T0D24 009:402 JLINK_WriteReg(MSP, 0x20000800)  returns 0x00 (0000ms, 5608ms total)
T0D24 009:402 JLINK_WriteReg(PSP, 0x20000800)  returns 0x00 (0000ms, 5608ms total)
T0D24 009:402 JLINK_WriteReg(CFBP, 0x00000000)  returns 0x00 (0001ms, 5608ms total)
T0D24 009:403 JLINK_SetBPEx(Addr = 0x20000000, Type = 0xFFFFFFF2)  returns 0x0000000E (0000ms, 5609ms total)
T0D24 009:403 JLINK_Go() -- CPU_WriteMem(4 bytes @ 0xE0002008) -- CPU_WriteMem(4 bytes @ 0xE000200C) -- CPU_WriteMem(4 bytes @ 0xE0002010) -- CPU_WriteMem(4 bytes @ 0xE0002014) -- CPU_WriteMem(4 bytes @ 0xE0002018) -- CPU_WriteMem(4 bytes @ 0xE000201C) (0067ms, 5609ms total)
T0D24 009:470 JLINK_IsHalted() -- CPU_ReadMem(2 bytes @ 0x20000000)  returns TRUE (0126ms, 5676ms total)
T0D24 009:596 JLINK_ReadReg(R15)  returns 0x20000000 (0000ms, 5676ms total)
T0D24 009:596 JLINK_ClrBPEx(BPHandle = 0x0000000E)  returns 0x00 (0000ms, 5676ms total)
T0D24 009:596 JLINK_ReadReg(R0)  returns 0x00000000 (0000ms, 5676ms total)
T0D24 009:596 JLINK_WriteMem(0x20000180, 0x0400 Bytes, ...) -- Data:  10 20 0A F0 BD FF 05 20 09 E0 4F F4 00 75 28 46 ... -- CPU_WriteMem(1024 bytes @ 0x20000180)  returns 0x400 (0237ms, 5676ms total)
T0D24 009:833 JLINK_WriteReg(R0, 0x08082400)  returns 0x00 (0000ms, 5913ms total)
T0D24 009:833 JLINK_WriteReg(R1, 0x00000400)  returns 0x00 (0000ms, 5913ms total)
T0D24 009:833 JLINK_WriteReg(R2, 0x20000180)  returns 0x00 (0000ms, 5913ms total)
T0D24 009:833 JLINK_WriteReg(R3, 0x00000000)  returns 0x00 (0000ms, 5913ms total)
T0D24 009:833 JLINK_WriteReg(R4, 0x00000000)  returns 0x00 (0000ms, 5913ms total)
T0D24 009:833 JLINK_WriteReg(R5, 0x00000000)  returns 0x00 (0000ms, 5913ms total)
T0D24 009:833 JLINK_WriteReg(R6, 0x00000000)  returns 0x00 (0000ms, 5913ms total)
T0D24 009:833 JLINK_WriteReg(R7, 0x00000000)  returns 0x00 (0001ms, 5913ms total)
T0D24 009:834 JLINK_WriteReg(R8, 0x00000000)  returns 0x00 (0000ms, 5914ms total)
T0D24 009:834 JLINK_WriteReg(R9, 0x2000017C)  returns 0x00 (0000ms, 5914ms total)
T0D24 009:834 JLINK_WriteReg(R10, 0x00000000)  returns 0x00 (0000ms, 5914ms total)
T0D24 009:834 JLINK_WriteReg(R11, 0x00000000)  returns 0x00 (0000ms, 5914ms total)
T0D24 009:834 JLINK_WriteReg(R12, 0x00000000)  returns 0x00 (0000ms, 5914ms total)
T0D24 009:834 JLINK_WriteReg(R13, 0x20000800)  returns 0x00 (0000ms, 5914ms total)
T0D24 009:834 JLINK_WriteReg(R14, 0x20000001)  returns 0x00 (0000ms, 5914ms total)
T0D24 009:834 JLINK_WriteReg(R15, 0x20000108)  returns 0x00 (0000ms, 5914ms total)
T0D24 009:834 JLINK_WriteReg(XPSR, 0x01000000)  returns 0x00 (0000ms, 5914ms total)
T0D24 009:834 JLINK_WriteReg(MSP, 0x20000800)  returns 0x00 (0000ms, 5914ms total)
T0D24 009:834 JLINK_WriteReg(PSP, 0x20000800)  returns 0x00 (0000ms, 5914ms total)
T0D24 009:834 JLINK_WriteReg(CFBP, 0x00000000)  returns 0x00 (0000ms, 5914ms total)
T0D24 009:834 JLINK_SetBPEx(Addr = 0x20000000, Type = 0xFFFFFFF2)  returns 0x0000000F (0000ms, 5914ms total)
T0D24 009:834 JLINK_Go() -- CPU_WriteMem(4 bytes @ 0xE0002008) -- CPU_WriteMem(4 bytes @ 0xE000200C) -- CPU_WriteMem(4 bytes @ 0xE0002010) -- CPU_WriteMem(4 bytes @ 0xE0002014) -- CPU_WriteMem(4 bytes @ 0xE0002018) -- CPU_WriteMem(4 bytes @ 0xE000201C) (0067ms, 5914ms total)
